T2790 18750:017 SEGGER J-Link V6.51a (beta) Log File (0000ms, 31661ms total)
T2790 18750:017 DLL Compiled: Aug 23 2019 16:11:09 (0000ms, 31661ms total)
T2790 18750:017 Logging started @ 2020-03-20 07:05 (0000ms, 31661ms total)
T2790 18750:017 JLINK_SetWarnOutHandler(...) (0000ms, 31661ms total)
T2790 18750:017 JLINK_OpenEx(...)
Firmware: J-Link V9 compiled Jun  2 2222 22:22:22
Hardware: V9.40
S/N: 59401308
Feature(s): GDB, RDI, FlashBP, FlashDL, JFlash, RDDI
TELNET listener socket opened on port 19021Device "S32K142" selected.WEBSRV 
Starting webserver (0041ms, 31702ms total)
T2790 18750:017 WEBSRV Webserver running on local port 19081 (0042ms, 31703ms total)
T2790 18750:017   returns O.K. (0042ms, 31703ms total)
T2790 18750:059 JLINK_GetEmuCaps()  returns 0xB9FF7BBF (0000ms, 31703ms total)
T2790 18750:059 JLINK_TIF_GetAvailable(...) (0001ms, 31704ms total)
T2790 18750:060 JLINK_SetErrorOutHandler(...) (0000ms, 31704ms total)
T2790 18750:060 JLINK_ExecCommand("ProjectFile = "C:\Users\Administrator\Desktop\obd_wifi_ap (1)\JLinkSettings.ini"", ...). Device "S32K142" selected.  returns 0x00 (0006ms, 31710ms total)
T2790 18750:070 JLINK_ExecCommand("Device = S32K142HAxxxLHx", ...). Device "S32K142" selected.  returns 0x00 (0002ms, 31712ms total)
T2790 18750:072 JLINK_ExecCommand("DisableConnectionTimeout", ...).   returns 0x01 (0000ms, 31712ms total)
T2790 18750:072 JLINK_GetHardwareVersion()  returns 0x16F30 (0000ms, 31712ms total)
T2790 18750:072 JLINK_GetDLLVersion()  returns 65101 (0000ms, 31712ms total)
T2790 18750:072 JLINK_GetFirmwareString(...) (0000ms, 31712ms total)
T2790 18750:080 JLINK_GetDLLVersion()  returns 65101 (0000ms, 31712ms total)
T2790 18750:080 JLINK_GetCompileDateTime() (0000ms, 31712ms total)
T2790 18750:082 JLINK_GetFirmwareString(...) (0000ms, 31712ms total)
T2790 18750:084 JLINK_GetHardwareVersion()  returns 0x16F30 (0000ms, 31712ms total)
T2790 18750:094 JLINK_TIF_Select(JLINKARM_TIF_SWD)  returns 0x00 (0001ms, 31713ms total)
T2790 18750:095 JLINK_SetSpeed(2000) (0000ms, 31713ms total)
T2790 18750:095 JLINK_GetId()InitTarget() >0x10B TIF>Found SW-DP with ID 0x2BA01477 >0x0D TIF> >0x28 TIF> >0x0D TIF> >0x28 TIF> >0x0D TIF> >0x28 TIF> >0x0D TIF> >0x28 TIF> >0x0D TIF> >0x21 TIF> >0x0D TIF> >0x28 TIF>Scanning AP map to find all available APs >0x0D TIF> >0x28 TIF> >0x0D TIF> >0x21 TIF> >0x0D TIF> >0x21 TIF> >0x0D TIF> >0x28 TIF> >0x0D TIF> >0x21 TIF> >0x0D TIF> >0x21 TIF> >0x0D TIF> >0x28 TIF> >0x0D TIF> >0x21 TIF> >0x0D TIF> >0x21 TIF>
AP[2]: Stopped AP scan as end of AP map has been reachedAP[0]: AHB-AP (IDR: 0x24770011)AP[1]: JTAG-AP (IDR: 0x001C0000)Iterating through AP map to find AHB-AP to use >0x42 TIF> >0x28 TIF> >0x0D TIF> >0x28 TIF> >0x0D TIF> >0x21 TIF> >0x0D TIF> >0x21 TIF> >0x42 TIF> >0x28 TIF> >0x0D TIF> >0x28 TIF> >0x0D TIF> >0x28 TIF> >0x0D TIF> >0x21 TIF> >0x0D TIF> >0x21 TIF>AP[0]: Core foundAP[0]: AHB-AP ROM base: 0xE00FF000 >0x0D TIF> >0x28 TIF> >0x0D TIF> >0x28 TIF> >0x0D TIF> >0x28 TIF> >0x0D TIF> >0x21 TIF>
 >0x0D TIF> >0x21 TIF>CPUID register: 0x410FC241. Implementer code: 0x41 (ARM)Found Cortex-M4 r0p1, Little endian. -- Max. mem block: 0x0000FE90 -- CPU_ReadMem(4 bytes @ 0xE000EDF0) -- CPU_WriteMem(4 bytes @ 0xE000EDF0) -- CPU_ReadMem(4 bytes @ 0xE0002000)FPUnit: 6 code (BP) slots and 2 literal slots -- CPU_ReadMem(4 bytes @ 0xE000EDFC) -- CPU_WriteMem(4 bytes @ 0xE000EDFC) -- CPU_ReadMem(4 bytes @ 0xE0001000) -- CPU_WriteMem(4 bytes @ 0xE0001000) -- CPU_ReadMem(4 bytes @ 0xE000ED88)
 -- CPU_WriteMem(4 bytes @ 0xE000ED88) -- CPU_ReadMem(4 bytes @ 0xE000ED88) -- CPU_WriteMem(4 bytes @ 0xE000ED88)CoreSight components:ROMTbl[0] @ E00FF000 -- CPU_ReadMem(16 bytes @ 0xE00FF000) -- CPU_ReadMem(16 bytes @ 0xE000EFF0) -- CPU_ReadMem(16 bytes @ 0xE000EFE0)ROMTbl[0][0]: E000E000, CID: B105E00D, PID: 000BB00C SCS-M7 -- CPU_ReadMem(16 bytes @ 0xE0001FF0) -- CPU_ReadMem(16 bytes @ 0xE0001FE0)ROMTbl[0][1]: E0001000, CID: B105E00D, PID: 003BB002 DWT -- CPU_ReadMem(16 bytes @ 0xE0002FF0)
 -- CPU_ReadMem(16 bytes @ 0xE0002FE0)ROMTbl[0][2]: E0002000, CID: B105E00D, PID: 002BB003 FPB -- CPU_ReadMem(16 bytes @ 0xE0000FF0) -- CPU_ReadMem(16 bytes @ 0xE0000FE0)ROMTbl[0][3]: E0000000, CID: B105E00D, PID: 003BB001 ITM -- CPU_ReadMem(16 bytes @ 0xE00FF010) -- CPU_ReadMem(16 bytes @ 0xE0040FF0) -- CPU_ReadMem(16 bytes @ 0xE0040FE0)ROMTbl[0][4]: E0040000, CID: B105900D, PID: 000BB9A1 TPIU -- CPU_ReadMem(16 bytes @ 0xE00FF020)Initializing 28672 bytes work RAM @ 0x1FFFC000 -- CPU is running
 -- CPU_WriteMem(4 bytes @ 0xE000EDF0) -- CPU is running -- CPU_WriteMem(4 bytes @ 0xE000EDFC)Reset: Halt core after reset via DEMCR.VC_CORERESET. >0x35 TIF>Reset: Reset device via AIRCR.SYSRESETREQ. -- CPU is running -- CPU_WriteMem(4 bytes @ 0xE000ED0C) >0x0D TIF> >0x28 TIF> -- CPU_ReadMem(4 bytes @ 0xE000EDF0) -- CPU_ReadMem(4 bytes @ 0xE000EDF0) -- CPU is running -- CPU_WriteMem(4 bytes @ 0xE000EDF0) -- CPU is running -- CPU_WriteMem(4 bytes @ 0xE000EDFC) -- CPU_ReadMem(4 bytes @ 0xE000EDF0)
 -- CPU_WriteMem(4 bytes @ 0xE0002000) -- CPU_ReadMem(4 bytes @ 0xE000EDFC) -- CPU_ReadMem(4 bytes @ 0xE0001000) -- CPU_WriteMem(28672 bytes @ 0x1FFFC000) >0x0D TIF> >0x21 TIF>  returns 0x2BA01477 (0482ms, 32195ms total)
T2790 18750:577 JLINK_GetDLLVersion()  returns 65101 (0000ms, 32195ms total)
T2790 18750:577 JLINK_CORE_GetFound()  returns 0xE0000FF (0000ms, 32195ms total)
T2790 18750:577 JLINK_GetDebugInfo(0x100 = JLINKARM_ROM_TABLE_ADDR_INDEX) -- Value=0xE00FF000  returns 0x00 (0000ms, 32195ms total)
T2790 18750:579 JLINK_GetDebugInfo(0x100 = JLINKARM_ROM_TABLE_ADDR_INDEX) -- Value=0xE00FF000  returns 0x00 (0000ms, 32195ms total)
T2790 18750:579 JLINK_GetDebugInfo(0x101 = JLINKARM_DEBUG_INFO_ETM_ADDR_INDEX) -- Value=0x00000000  returns 0x00 (0000ms, 32195ms total)
T2790 18750:579 JLINK_ReadMemEx(0xE0041FF0, 0x0010 Bytes, ..., Flags = 0x02000004) -- CPU_ReadMem(16 bytes @ 0xE0041FF0) - Data: 00 00 00 00 00 00 00 00 00 00 00 00 00 00 00 00  returns 0x10 (0000ms, 32195ms total)
T2790 18750:579 JLINK_GetDebugInfo(0x102 = JLINKARM_DEBUG_INFO_MTB_ADDR_INDEX) -- Value=0x00000000  returns 0x00 (0000ms, 32195ms total)
T2790 18750:579 JLINK_GetDebugInfo(0x103 = JLINKARM_DEBUG_INFO_TPIU_ADDR_INDEX) -- Value=0xE0040000  returns 0x00 (0000ms, 32195ms total)
T2790 18750:579 JLINK_GetDebugInfo(0x104 = JLINKARM_DEBUG_INFO_ITM_ADDR_INDEX) -- Value=0xE0000000  returns 0x00 (0000ms, 32195ms total)
T2790 18750:579 JLINK_GetDebugInfo(0x105 = JLINKARM_DEBUG_INFO_DWT_ADDR_INDEX) -- Value=0xE0001000  returns 0x00 (0000ms, 32195ms total)
T2790 18750:579 JLINK_GetDebugInfo(0x106 = JLINKARM_DEBUG_INFO_FPB_ADDR_INDEX) -- Value=0xE0002000  returns 0x00 (0000ms, 32195ms total)
T2790 18750:579 JLINK_GetDebugInfo(0x107 = JLINKARM_DEBUG_INFO_NVIC_ADDR_INDEX) -- Value=0xE000E000  returns 0x00 (0000ms, 32195ms total)
T2790 18750:579 JLINK_GetDebugInfo(0x10C = JLINKARM_DEBUG_INFO_DBG_ADDR_INDEX) -- Value=0xE000EDF0  returns 0x00 (0000ms, 32195ms total)
T2790 18750:579 JLINK_GetDebugInfo(0x01 = Unknown) -- Value=0x00000001  returns 0x00 (0000ms, 32195ms total)
T2790 18750:579 JLINK_ReadMemU32(0xE000ED00, 0x0001 Items, ...) -- CPU_ReadMem(4 bytes @ 0xE000ED00) - Data: 41 C2 0F 41  returns 1 (0001ms, 32196ms total)
T2790 18750:580 JLINK_GetDebugInfo(0x10F = JLINKARM_DEBUG_INFO_HAS_CORTEX_M_SECURITY_EXT_INDEX) -- Value=0x00000000  returns 0x00 (0000ms, 32196ms total)
T2790 18750:580 JLINK_SetResetType(JLINKARM_CM3_RESET_TYPE_NORMAL)  returns JLINKARM_CM3_RESET_TYPE_NORMAL (0000ms, 32196ms total)
T2790 18750:580 JLINK_Reset() -- CPU_WriteMem(4 bytes @ 0xE000EDF0) -- CPU_WriteMem(4 bytes @ 0xE000EDFC)Reset: Halt core after reset via DEMCR.VC_CORERESET. >0x35 TIF>Reset: Reset device via AIRCR.SYSRESETREQ. -- CPU_WriteMem(4 bytes @ 0xE000ED0C) >0x0D TIF> >0x28 TIF> -- CPU_ReadMem(4 bytes @ 0xE000EDF0) -- CPU_ReadMem(4 bytes @ 0xE000EDF0) -- CPU_WriteMem(4 bytes @ 0xE000EDF0) -- CPU_WriteMem(4 bytes @ 0xE000EDFC) -- CPU_ReadMem(4 bytes @ 0xE000EDF0) -- CPU_WriteMem(4 bytes @ 0xE0002000)
 -- CPU_ReadMem(4 bytes @ 0xE000EDFC) -- CPU_ReadMem(4 bytes @ 0xE0001000) (0070ms, 32266ms total)
T2790 18750:650 JLINK_Halt()  returns 0x00 (0000ms, 32266ms total)
T2790 18750:650 JLINK_ReadMemU32(0xE000EDF0, 0x0001 Items, ...) -- CPU_ReadMem(4 bytes @ 0xE000EDF0) - Data: 03 00 03 00  returns 1 (0000ms, 32266ms total)
T2790 18750:650 JLINK_WriteU32(0xE000EDF0, 0xA05F0003) -- CPU_WriteMem(4 bytes @ 0xE000EDF0)  returns 0 (0001ms, 32267ms total)
T2790 18750:651 JLINK_WriteU32(0xE000EDFC, 0x01000000) -- CPU_WriteMem(4 bytes @ 0xE000EDFC)  returns 0 (0000ms, 32267ms total)
T2790 18750:661 JLINK_GetHWStatus(...)  returns 0x00 (0000ms, 32267ms total)
T2790 18750:666 JLINK_GetNumBPUnits(Type = 0xFFFFFF00)  returns 0x06 (0000ms, 32267ms total)
T2790 18750:666 JLINK_GetNumBPUnits(Type = 0xF0)  returns 0x2000 (0000ms, 32267ms total)
T2790 18750:666 JLINK_GetNumWPUnits()  returns 0x04 (0000ms, 32267ms total)
T2790 18750:671 JLINK_GetSpeed()  returns 0x7D0 (0000ms, 32267ms total)
T2790 18750:676 JLINK_ReadMemU32(0xE000E004, 0x0001 Items, ...) -- CPU_ReadMem(4 bytes @ 0xE000E004) - Data: 04 00 00 00  returns 1 (0001ms, 32268ms total)
T2790 18750:677 JLINK_ReadMemU32(0xE000E004, 0x0001 Items, ...) -- CPU_ReadMem(4 bytes @ 0xE000E004) - Data: 04 00 00 00  returns 1 (0000ms, 32268ms total)
T2790 18750:677 JLINK_WriteMemEx(0xE0001000, 0x001C Bytes, ..., Flags = 0x02000004) - Data: 01 00 00 00 00 00 00 00 00 00 00 00 00 00 00 00 ... -- CPU_WriteMem(28 bytes @ 0xE0001000)  returns 0x1C (0001ms, 32269ms total)
T2790 18750:678 JLINK_Halt()  returns 0x00 (0000ms, 32269ms total)
T2790 18750:678 JLINK_IsHalted()  returns TRUE (0000ms, 32269ms total)
T2790 18750:681 JLINK_WriteMem(0x20000000, 0x091C Bytes, ...) - Data: 00 BE 0A E0 0D 78 2D 06 68 40 08 24 40 00 00 D3 ... -- CPU_WriteMem(2332 bytes @ 0x20000000)  returns 0x91C (0016ms, 32285ms total)
T2790 18750:697 JLINK_WriteReg(R0, 0x00000000)  returns 0x00 (0000ms, 32285ms total)
T2790 18750:697 JLINK_WriteReg(R1, 0x00B71B00)  returns 0x00 (0000ms, 32285ms total)
T2790 18750:697 JLINK_WriteReg(R2, 0x00000001)  returns 0x00 (0000ms, 32285ms total)
T2790 18750:697 JLINK_WriteReg(R3, 0x00000000)  returns 0x00 (0000ms, 32285ms total)
T2790 18750:697 JLINK_WriteReg(R4, 0x00000000)  returns 0x00 (0000ms, 32285ms total)
T2790 18750:697 JLINK_WriteReg(R5, 0x00000000)  returns 0x00 (0000ms, 32285ms total)
T2790 18750:697 JLINK_WriteReg(R6, 0x00000000)  returns 0x00 (0000ms, 32285ms total)
T2790 18750:697 JLINK_WriteReg(R7, 0x00000000)  returns 0x00 (0001ms, 32286ms total)
T2790 18750:698 JLINK_WriteReg(R8, 0x00000000)  returns 0x00 (0000ms, 32286ms total)
T2790 18750:698 JLINK_WriteReg(R9, 0x20000910)  returns 0x00 (0000ms, 32286ms total)
T2790 18750:698 JLINK_WriteReg(R10, 0x00000000)  returns 0x00 (0000ms, 32286ms total)
T2790 18750:698 JLINK_WriteReg(R11, 0x00000000)  returns 0x00 (0000ms, 32286ms total)
T2790 18750:698 JLINK_WriteReg(R12, 0x00000000)  returns 0x00 (0000ms, 32286ms total)
T2790 18750:698 JLINK_WriteReg(R13 (SP), 0x20001000)  returns 0x00 (0000ms, 32286ms total)
T2790 18750:698 JLINK_WriteReg(R14, 0x20000001)  returns 0x00 (0000ms, 32286ms total)
T2790 18750:698 JLINK_WriteReg(R15 (PC), 0x20000020)  returns 0x00 (0000ms, 32286ms total)
T2790 18750:698 JLINK_WriteReg(XPSR, 0x01000000)  returns 0x00 (0000ms, 32286ms total)
T2790 18750:698 JLINK_WriteReg(MSP, 0x20001000)  returns 0x00 (0000ms, 32286ms total)
T2790 18750:698 JLINK_WriteReg(PSP, 0x20001000)  returns 0x00 (0000ms, 32286ms total)
T2790 18750:698 JLINK_WriteReg(CFBP, 0x00000000)  returns 0x00 (0000ms, 32286ms total)
T2790 18750:698 JLINK_SetBPEx(Addr = 0x20000000, Type = 0xFFFFFFF2) -- CPU_ReadMem(2 bytes @ 0x20000000)  returns 0x00000001 (0000ms, 32286ms total)
T2790 18750:698 JLINK_Go() -- CPU_WriteMem(2 bytes @ 0x20000000) -- CPU_ReadMem(4 bytes @ 0xE0001000) -- CPU_WriteMem(4 bytes @ 0xE0002008) -- CPU_WriteMem(4 bytes @ 0xE000200C) -- CPU_WriteMem(4 bytes @ 0xE0002010) -- CPU_WriteMem(4 bytes @ 0xE0002014) -- CPU_WriteMem(4 bytes @ 0xE0002018) -- CPU_WriteMem(4 bytes @ 0xE000201C) -- CPU_WriteMem(4 bytes @ 0xE0001004) (0006ms, 32292ms total)
T2790 18750:705 JLINK_IsHalted() -- CPU_ReadMem(2 bytes @ 0x20000000)  returns TRUE (0003ms, 32295ms total)
T2790 18750:708 JLINK_ReadReg(R15 (PC))  returns 0x20000000 (0000ms, 32292ms total)
T2790 18750:708 JLINK_ClrBPEx(BPHandle = 0x00000001)  returns 0x00 (0000ms, 32292ms total)
T2790 18750:708 JLINK_ReadReg(R0)  returns 0x00000000 (0000ms, 32292ms total)
T2790 18750:709 JLINK_WriteReg(R0, 0x00000000)  returns 0x00 (0000ms, 32292ms total)
T2790 18750:709 JLINK_WriteReg(R1, 0x00B71B00)  returns 0x00 (0000ms, 32292ms total)
T2790 18750:709 JLINK_WriteReg(R2, 0x00000001)  returns 0x00 (0000ms, 32292ms total)
T2790 18750:709 JLINK_WriteReg(R3, 0x00000000)  returns 0x00 (0000ms, 32292ms total)
T2790 18750:709 JLINK_WriteReg(R4, 0x00000000)  returns 0x00 (0000ms, 32292ms total)
T2790 18750:709 JLINK_WriteReg(R5, 0x00000000)  returns 0x00 (0000ms, 32292ms total)
T2790 18750:709 JLINK_WriteReg(R6, 0x00000000)  returns 0x00 (0000ms, 32292ms total)
T2790 18750:709 JLINK_WriteReg(R7, 0x00000000)  returns 0x00 (0000ms, 32292ms total)
T2790 18750:709 JLINK_WriteReg(R8, 0x00000000)  returns 0x00 (0000ms, 32292ms total)
T2790 18750:709 JLINK_WriteReg(R9, 0x20000910)  returns 0x00 (0000ms, 32292ms total)
T2790 18750:709 JLINK_WriteReg(R10, 0x00000000)  returns 0x00 (0000ms, 32292ms total)
T2790 18750:709 JLINK_WriteReg(R11, 0x00000000)  returns 0x00 (0000ms, 32292ms total)
T2790 18750:709 JLINK_WriteReg(R12, 0x00000000)  returns 0x00 (0000ms, 32292ms total)
T2790 18750:709 JLINK_WriteReg(R13 (SP), 0x20001000)  returns 0x00 (0000ms, 32292ms total)
T2790 18750:709 JLINK_WriteReg(R14, 0x20000001)  returns 0x00 (0000ms, 32292ms total)
T2790 18750:709 JLINK_WriteReg(R15 (PC), 0x200000B0)  returns 0x00 (0000ms, 32292ms total)
T2790 18750:709 JLINK_WriteReg(XPSR, 0x01000000)  returns 0x00 (0000ms, 32292ms total)
T2790 18750:709 JLINK_WriteReg(MSP, 0x20001000)  returns 0x00 (0000ms, 32292ms total)
T2790 18750:709 JLINK_WriteReg(PSP, 0x20001000)  returns 0x00 (0000ms, 32292ms total)
T2790 18750:709 JLINK_WriteReg(CFBP, 0x00000000)  returns 0x00 (0000ms, 32292ms total)
T2790 18750:709 JLINK_SetBPEx(Addr = 0x20000000, Type = 0xFFFFFFF2)  returns 0x00000002 (0000ms, 32292ms total)
T2790 18750:709 JLINK_Go() -- CPU_ReadMem(4 bytes @ 0xE0001000) (0004ms, 32296ms total)
T2790 18750:713 JLINK_IsHalted()  returns FALSE (0000ms, 32296ms total)
T2790 18750:747 JLINK_IsHalted()  returns FALSE (0000ms, 32296ms total)
T2790 18750:752 JLINK_IsHalted()  returns FALSE (0000ms, 32296ms total)
T2790 18750:755 JLINK_IsHalted()  returns FALSE (0000ms, 32296ms total)
T2790 18750:758 JLINK_IsHalted()  returns FALSE (0000ms, 32296ms total)
T2790 18750:760 JLINK_IsHalted()  returns FALSE (0000ms, 32296ms total)
T2790 18750:762 JLINK_IsHalted()  returns FALSE (0000ms, 32296ms total)
T2790 18750:766 JLINK_IsHalted()  returns FALSE (0000ms, 32296ms total)
T2790 18750:769 JLINK_IsHalted()  returns FALSE (0000ms, 32296ms total)
T2790 18750:770 JLINK_IsHalted()  returns FALSE (0000ms, 32296ms total)
T2790 18750:774 JLINK_IsHalted()  returns FALSE (0000ms, 32296ms total)
T2790 18750:776 JLINK_IsHalted()  returns FALSE (0000ms, 32296ms total)
T2790 18750:778 JLINK_IsHalted()  returns FALSE (0000ms, 32296ms total)
T2790 18750:784 JLINK_IsHalted()  returns FALSE (0000ms, 32296ms total)
T2790 18750:786 JLINK_IsHalted()  returns FALSE (0000ms, 32296ms total)
T2790 18750:789 JLINK_IsHalted()  returns FALSE (0000ms, 32296ms total)
T2790 18750:791 JLINK_IsHalted()  returns FALSE (0000ms, 32296ms total)
T2790 18750:793 JLINK_IsHalted()  returns FALSE (0000ms, 32296ms total)
T2790 18750:795 JLINK_IsHalted()  returns FALSE (0000ms, 32296ms total)
T2790 18750:800 JLINK_IsHalted()  returns FALSE (0000ms, 32296ms total)
T2790 18750:802 JLINK_IsHalted()  returns FALSE (0000ms, 32296ms total)
T2790 18750:805 JLINK_IsHalted()  returns FALSE (0000ms, 32296ms total)
T2790 18750:807 JLINK_IsHalted()  returns FALSE (0000ms, 32296ms total)
T2790 18750:809 JLINK_IsHalted()  returns FALSE (0000ms, 32296ms total)
T2790 18750:814 JLINK_IsHalted()  returns FALSE (0000ms, 32296ms total)
T2790 18750:816 JLINK_IsHalted() -- CPU_ReadMem(2 bytes @ 0x20000000)  returns TRUE (0004ms, 32300ms total)
T2790 18750:820 JLINK_ReadReg(R15 (PC))  returns 0x20000000 (0000ms, 32296ms total)
T2790 18750:820 JLINK_ClrBPEx(BPHandle = 0x00000002)  returns 0x00 (0000ms, 32296ms total)
T2790 18750:820 JLINK_ReadReg(R0)  returns 0x00000000 (0000ms, 32296ms total)
T2790 18750:870 JLINK_WriteReg(R0, 0x00000001)  returns 0x00 (0000ms, 32296ms total)
T2790 18750:870 JLINK_WriteReg(R1, 0x00B71B00)  returns 0x00 (0000ms, 32296ms total)
T2790 18750:870 JLINK_WriteReg(R2, 0x00000001)  returns 0x00 (0000ms, 32296ms total)
T2790 18750:870 JLINK_WriteReg(R3, 0x00000000)  returns 0x00 (0000ms, 32296ms total)
T2790 18750:870 JLINK_WriteReg(R4, 0x00000000)  returns 0x00 (0000ms, 32296ms total)
T2790 18750:870 JLINK_WriteReg(R5, 0x00000000)  returns 0x00 (0000ms, 32296ms total)
T2790 18750:870 JLINK_WriteReg(R6, 0x00000000)  returns 0x00 (0000ms, 32296ms total)
T2790 18750:870 JLINK_WriteReg(R7, 0x00000000)  returns 0x00 (0000ms, 32296ms total)
T2790 18750:870 JLINK_WriteReg(R8, 0x00000000)  returns 0x00 (0000ms, 32296ms total)
T2790 18750:870 JLINK_WriteReg(R9, 0x20000910)  returns 0x00 (0000ms, 32296ms total)
T2790 18750:870 JLINK_WriteReg(R10, 0x00000000)  returns 0x00 (0000ms, 32296ms total)
T2790 18750:870 JLINK_WriteReg(R11, 0x00000000)  returns 0x00 (0000ms, 32296ms total)
T2790 18750:870 JLINK_WriteReg(R12, 0x00000000)  returns 0x00 (0000ms, 32296ms total)
T2790 18750:870 JLINK_WriteReg(R13 (SP), 0x20001000)  returns 0x00 (0000ms, 32296ms total)
T2790 18750:870 JLINK_WriteReg(R14, 0x20000001)  returns 0x00 (0000ms, 32296ms total)
T2790 18750:870 JLINK_WriteReg(R15 (PC), 0x20000092)  returns 0x00 (0000ms, 32296ms total)
T2790 18750:870 JLINK_WriteReg(XPSR, 0x01000000)  returns 0x00 (0000ms, 32296ms total)
T2790 18750:870 JLINK_WriteReg(MSP, 0x20001000)  returns 0x00 (0000ms, 32296ms total)
T2790 18750:870 JLINK_WriteReg(PSP, 0x20001000)  returns 0x00 (0000ms, 32296ms total)
T2790 18750:870 JLINK_WriteReg(CFBP, 0x00000000)  returns 0x00 (0000ms, 32296ms total)
T2790 18750:871 JLINK_SetBPEx(Addr = 0x20000000, Type = 0xFFFFFFF2)  returns 0x00000003 (0000ms, 32297ms total)
T2790 18750:871 JLINK_Go() -- CPU_ReadMem(4 bytes @ 0xE0001000) (0003ms, 32300ms total)
T2790 18750:874 JLINK_IsHalted() -- CPU_ReadMem(2 bytes @ 0x20000000)  returns TRUE (0004ms, 32304ms total)
T2790 18750:878 JLINK_ReadReg(R15 (PC))  returns 0x20000000 (0000ms, 32300ms total)
T2790 18750:878 JLINK_ClrBPEx(BPHandle = 0x00000003)  returns 0x00 (0000ms, 32300ms total)
T2790 18750:878 JLINK_ReadReg(R0)  returns 0x00000000 (0000ms, 32300ms total)
T2790 18750:882 JLINK_WriteMem(0x20000000, 0x091C Bytes, ...) - Data: 00 BE 0A E0 0D 78 2D 06 68 40 08 24 40 00 00 D3 ... -- CPU_WriteMem(2332 bytes @ 0x20000000)  returns 0x91C (0016ms, 32316ms total)
T2790 18750:898 JLINK_WriteReg(R0, 0x00000000)  returns 0x00 (0000ms, 32316ms total)
T2790 18750:898 JLINK_WriteReg(R1, 0x00B71B00)  returns 0x00 (0000ms, 32316ms total)
T2790 18750:898 JLINK_WriteReg(R2, 0x00000002)  returns 0x00 (0000ms, 32316ms total)
T2790 18750:898 JLINK_WriteReg(R3, 0x00000000)  returns 0x00 (0000ms, 32316ms total)
T2790 18750:898 JLINK_WriteReg(R4, 0x00000000)  returns 0x00 (0000ms, 32316ms total)
T2790 18750:898 JLINK_WriteReg(R5, 0x00000000)  returns 0x00 (0000ms, 32316ms total)
T2790 18750:898 JLINK_WriteReg(R6, 0x00000000)  returns 0x00 (0000ms, 32316ms total)
T2790 18750:898 JLINK_WriteReg(R7, 0x00000000)  returns 0x00 (0000ms, 32316ms total)
T2790 18750:898 JLINK_WriteReg(R8, 0x00000000)  returns 0x00 (0000ms, 32316ms total)
T2790 18750:898 JLINK_WriteReg(R9, 0x20000910)  returns 0x00 (0000ms, 32316ms total)
T2790 18750:898 JLINK_WriteReg(R10, 0x00000000)  returns 0x00 (0000ms, 32316ms total)
T2790 18750:898 JLINK_WriteReg(R11, 0x00000000)  returns 0x00 (0000ms, 32316ms total)
T2790 18750:898 JLINK_WriteReg(R12, 0x00000000)  returns 0x00 (0000ms, 32316ms total)
T2790 18750:898 JLINK_WriteReg(R13 (SP), 0x20001000)  returns 0x00 (0000ms, 32316ms total)
T2790 18750:898 JLINK_WriteReg(R14, 0x20000001)  returns 0x00 (0000ms, 32316ms total)
T2790 18750:898 JLINK_WriteReg(R15 (PC), 0x20000020)  returns 0x00 (0000ms, 32316ms total)
T2790 18750:898 JLINK_WriteReg(XPSR, 0x01000000)  returns 0x00 (0000ms, 32316ms total)
T2790 18750:898 JLINK_WriteReg(MSP, 0x20001000)  returns 0x00 (0000ms, 32316ms total)
T2790 18750:898 JLINK_WriteReg(PSP, 0x20001000)  returns 0x00 (0000ms, 32316ms total)
T2790 18750:898 JLINK_WriteReg(CFBP, 0x00000000)  returns 0x00 (0000ms, 32316ms total)
T2790 18750:898 JLINK_SetBPEx(Addr = 0x20000000, Type = 0xFFFFFFF2) -- CPU_ReadMem(2 bytes @ 0x20000000)  returns 0x00000004 (0001ms, 32317ms total)
T2790 18750:899 JLINK_Go() -- CPU_WriteMem(2 bytes @ 0x20000000) -- CPU_ReadMem(4 bytes @ 0xE0001000) (0004ms, 32321ms total)
T2790 18750:903 JLINK_IsHalted() -- CPU_ReadMem(2 bytes @ 0x20000000)  returns TRUE (0004ms, 32325ms total)
T2790 18750:907 JLINK_ReadReg(R15 (PC))  returns 0x20000000 (0000ms, 32321ms total)
T2790 18750:907 JLINK_ClrBPEx(BPHandle = 0x00000004)  returns 0x00 (0000ms, 32321ms total)
T2790 18750:907 JLINK_ReadReg(R0)  returns 0x00000000 (0000ms, 32321ms total)
T2790 18750:907 JLINK_WriteMem(0x2000094C, 0x02B4 Bytes, ...) - Data: 00 30 00 20 C1 04 00 00 D3 04 00 00 D5 04 00 00 ... -- CPU_WriteMem(692 bytes @ 0x2000094C)  returns 0x2B4 (0005ms, 32326ms total)
T2790 18750:913 JLINK_WriteMem(0x20000C00, 0x014C Bytes, ...) - Data: E5 04 00 00 E5 04 00 00 E5 04 00 00 E5 04 00 00 ... -- CPU_WriteMem(332 bytes @ 0x20000C00)  returns 0x14C (0002ms, 32329ms total)
T2790 18750:915 JLINK_WriteReg(R0, 0x00000000)  returns 0x00 (0001ms, 32330ms total)
T2790 18750:916 JLINK_WriteReg(R1, 0x00000400)  returns 0x00 (0000ms, 32330ms total)
T2790 18750:916 JLINK_WriteReg(R2, 0x2000094C)  returns 0x00 (0000ms, 32330ms total)
T2790 18750:916 JLINK_WriteReg(R3, 0x00000000)  returns 0x00 (0000ms, 32330ms total)
T2790 18750:916 JLINK_WriteReg(R4, 0x00000000)  returns 0x00 (0000ms, 32330ms total)
T2790 18750:916 JLINK_WriteReg(R5, 0x00000000)  returns 0x00 (0000ms, 32330ms total)
T2790 18750:916 JLINK_WriteReg(R6, 0x00000000)  returns 0x00 (0000ms, 32330ms total)
T2790 18750:916 JLINK_WriteReg(R7, 0x00000000)  returns 0x00 (0000ms, 32330ms total)
T2790 18750:916 JLINK_WriteReg(R8, 0x00000000)  returns 0x00 (0000ms, 32330ms total)
T2790 18750:916 JLINK_WriteReg(R9, 0x20000910)  returns 0x00 (0000ms, 32330ms total)
T2790 18750:916 JLINK_WriteReg(R10, 0x00000000)  returns 0x00 (0000ms, 32330ms total)
T2790 18750:916 JLINK_WriteReg(R11, 0x00000000)  returns 0x00 (0000ms, 32330ms total)
T2790 18750:916 JLINK_WriteReg(R12, 0x00000000)  returns 0x00 (0000ms, 32330ms total)
T2790 18750:916 JLINK_WriteReg(R13 (SP), 0x20001000)  returns 0x00 (0000ms, 32330ms total)
T2790 18750:916 JLINK_WriteReg(R14, 0x20000001)  returns 0x00 (0000ms, 32330ms total)
T2790 18750:916 JLINK_WriteReg(R15 (PC), 0x200000F6)  returns 0x00 (0000ms, 32330ms total)
T2790 18750:916 JLINK_WriteReg(XPSR, 0x01000000)  returns 0x00 (0000ms, 32330ms total)
T2790 18750:916 JLINK_WriteReg(MSP, 0x20001000)  returns 0x00 (0000ms, 32330ms total)
T2790 18750:916 JLINK_WriteReg(PSP, 0x20001000)  returns 0x00 (0000ms, 32330ms total)
T2790 18750:916 JLINK_WriteReg(CFBP, 0x00000000)  returns 0x00 (0000ms, 32330ms total)
T2790 18750:916 JLINK_SetBPEx(Addr = 0x20000000, Type = 0xFFFFFFF2)  returns 0x00000005 (0000ms, 32330ms total)
T2790 18750:916 JLINK_Go() -- CPU_ReadMem(4 bytes @ 0xE0001000) (0004ms, 32334ms total)
T2790 18750:920 JLINK_IsHalted()  returns FALSE (0000ms, 32334ms total)
T2790 18750:928 JLINK_IsHalted()  returns FALSE (0000ms, 32334ms total)
T2790 18750:930 JLINK_IsHalted() -- CPU_ReadMem(2 bytes @ 0x20000000)  returns TRUE (0004ms, 32338ms total)
T2790 18750:934 JLINK_ReadReg(R15 (PC))  returns 0x20000000 (0000ms, 32334ms total)
T2790 18750:934 JLINK_ClrBPEx(BPHandle = 0x00000005)  returns 0x00 (0000ms, 32334ms total)
T2790 18750:934 JLINK_ReadReg(R0)  returns 0x00000000 (0000ms, 32334ms total)
T2790 18750:934 JLINK_WriteMem(0x2000094C, 0x02B4 Bytes, ...) - Data: FF FF FF FF FF FF FF FF FF FF FF FF FE 7F FF FF ... -- CPU_WriteMem(692 bytes @ 0x2000094C)  returns 0x2B4 (0006ms, 32340ms total)
T2790 18750:940 JLINK_WriteMem(0x20000C00, 0x014C Bytes, ...) - Data: 10 B5 20 3A C0 F0 0B 80 B1 E8 18 50 20 3A A0 E8 ... -- CPU_WriteMem(332 bytes @ 0x20000C00)  returns 0x14C (0003ms, 32343ms total)
T2790 18750:943 JLINK_WriteReg(R0, 0x00000400)  returns 0x00 (0000ms, 32343ms total)
T2790 18750:943 JLINK_WriteReg(R1, 0x00000400)  returns 0x00 (0000ms, 32343ms total)
T2790 18750:943 JLINK_WriteReg(R2, 0x2000094C)  returns 0x00 (0000ms, 32343ms total)
T2790 18750:943 JLINK_WriteReg(R3, 0x00000000)  returns 0x00 (0000ms, 32343ms total)
T2790 18750:943 JLINK_WriteReg(R4, 0x00000000)  returns 0x00 (0000ms, 32343ms total)
T2790 18750:943 JLINK_WriteReg(R5, 0x00000000)  returns 0x00 (0000ms, 32343ms total)
T2790 18750:943 JLINK_WriteReg(R6, 0x00000000)  returns 0x00 (0000ms, 32343ms total)
T2790 18750:943 JLINK_WriteReg(R7, 0x00000000)  returns 0x00 (0000ms, 32343ms total)
T2790 18750:943 JLINK_WriteReg(R8, 0x00000000)  returns 0x00 (0000ms, 32343ms total)
T2790 18750:943 JLINK_WriteReg(R9, 0x20000910)  returns 0x00 (0000ms, 32343ms total)
T2790 18750:943 JLINK_WriteReg(R10, 0x00000000)  returns 0x00 (0000ms, 32343ms total)
T2790 18750:943 JLINK_WriteReg(R11, 0x00000000)  returns 0x00 (0000ms, 32343ms total)
T2790 18750:943 JLINK_WriteReg(R12, 0x00000000)  returns 0x00 (0000ms, 32343ms total)
T2790 18750:943 JLINK_WriteReg(R13 (SP), 0x20001000)  returns 0x00 (0000ms, 32343ms total)
T2790 18750:943 JLINK_WriteReg(R14, 0x20000001)  returns 0x00 (0000ms, 32343ms total)
T2790 18750:943 JLINK_WriteReg(R15 (PC), 0x200000F6)  returns 0x00 (0000ms, 32343ms total)
T2790 18750:943 JLINK_WriteReg(XPSR, 0x01000000)  returns 0x00 (0000ms, 32343ms total)
T2790 18750:943 JLINK_WriteReg(MSP, 0x20001000)  returns 0x00 (0000ms, 32343ms total)
T2790 18750:943 JLINK_WriteReg(PSP, 0x20001000)  returns 0x00 (0000ms, 32343ms total)
T2790 18750:943 JLINK_WriteReg(CFBP, 0x00000000)  returns 0x00 (0000ms, 32343ms total)
T2790 18750:943 JLINK_SetBPEx(Addr = 0x20000000, Type = 0xFFFFFFF2)  returns 0x00000006 (0000ms, 32343ms total)
T2790 18750:943 JLINK_Go() -- CPU_ReadMem(4 bytes @ 0xE0001000) (0004ms, 32347ms total)
T2790 18750:947 JLINK_IsHalted()  returns FALSE (0001ms, 32348ms total)
T2790 18750:954 JLINK_IsHalted()  returns FALSE (0000ms, 32347ms total)
T2790 18750:956 JLINK_IsHalted()  returns FALSE (0000ms, 32347ms total)
T2790 18750:958 JLINK_IsHalted() -- CPU_ReadMem(2 bytes @ 0x20000000)  returns TRUE (0004ms, 32351ms total)
T2790 18750:962 JLINK_ReadReg(R15 (PC))  returns 0x20000000 (0000ms, 32347ms total)
T2790 18750:962 JLINK_ClrBPEx(BPHandle = 0x00000006)  returns 0x00 (0000ms, 32347ms total)
T2790 18750:962 JLINK_ReadReg(R0)  returns 0x00000000 (0000ms, 32347ms total)
T2790 18750:962 JLINK_WriteMem(0x2000094C, 0x02B4 Bytes, ...) - Data: 00 20 AF F3 00 80 07 00 08 BF 00 F0 3B F8 00 98 ... -- CPU_WriteMem(692 bytes @ 0x2000094C)  returns 0x2B4 (0005ms, 32352ms total)
T2790 18750:967 JLINK_WriteMem(0x20000C00, 0x014C Bytes, ...) - Data: 08 60 04 48 D0 F8 08 90 08 20 02 49 08 63 00 BF ... -- CPU_WriteMem(332 bytes @ 0x20000C00)  returns 0x14C (0003ms, 32355ms total)
T2790 18750:970 JLINK_WriteReg(R0, 0x00000800)  returns 0x00 (0000ms, 32355ms total)
T2790 18750:970 JLINK_WriteReg(R1, 0x00000400)  returns 0x00 (0000ms, 32355ms total)
T2790 18750:970 JLINK_WriteReg(R2, 0x2000094C)  returns 0x00 (0000ms, 32355ms total)
T2790 18750:970 JLINK_WriteReg(R3, 0x00000000)  returns 0x00 (0000ms, 32355ms total)
T2790 18750:970 JLINK_WriteReg(R4, 0x00000000)  returns 0x00 (0000ms, 32355ms total)
T2790 18750:970 JLINK_WriteReg(R5, 0x00000000)  returns 0x00 (0000ms, 32355ms total)
T2790 18750:970 JLINK_WriteReg(R6, 0x00000000)  returns 0x00 (0000ms, 32355ms total)
T2790 18750:970 JLINK_WriteReg(R7, 0x00000000)  returns 0x00 (0000ms, 32355ms total)
T2790 18750:970 JLINK_WriteReg(R8, 0x00000000)  returns 0x00 (0000ms, 32355ms total)
T2790 18750:970 JLINK_WriteReg(R9, 0x20000910)  returns 0x00 (0000ms, 32355ms total)
T2790 18750:970 JLINK_WriteReg(R10, 0x00000000)  returns 0x00 (0000ms, 32355ms total)
T2790 18750:970 JLINK_WriteReg(R11, 0x00000000)  returns 0x00 (0000ms, 32355ms total)
T2790 18750:970 JLINK_WriteReg(R12, 0x00000000)  returns 0x00 (0000ms, 32355ms total)
T2790 18750:970 JLINK_WriteReg(R13 (SP), 0x20001000)  returns 0x00 (0000ms, 32355ms total)
T2790 18750:970 JLINK_WriteReg(R14, 0x20000001)  returns 0x00 (0000ms, 32355ms total)
T2790 18750:970 JLINK_WriteReg(R15 (PC), 0x200000F6)  returns 0x00 (0000ms, 32355ms total)
T2790 18750:970 JLINK_WriteReg(XPSR, 0x01000000)  returns 0x00 (0000ms, 32355ms total)
T2790 18750:970 JLINK_WriteReg(MSP, 0x20001000)  returns 0x00 (0000ms, 32355ms total)
T2790 18750:970 JLINK_WriteReg(PSP, 0x20001000)  returns 0x00 (0001ms, 32356ms total)
T2790 18750:971 JLINK_WriteReg(CFBP, 0x00000000)  returns 0x00 (0000ms, 32356ms total)
T2790 18750:971 JLINK_SetBPEx(Addr = 0x20000000, Type = 0xFFFFFFF2)  returns 0x00000007 (0000ms, 32356ms total)
T2790 18750:971 JLINK_Go() -- CPU_ReadMem(4 bytes @ 0xE0001000) (0003ms, 32359ms total)
T2790 18750:974 JLINK_IsHalted()  returns FALSE (0001ms, 32360ms total)
T2790 18750:979 JLINK_IsHalted()  returns FALSE (0000ms, 32359ms total)
T2790 18750:981 JLINK_IsHalted()  returns FALSE (0000ms, 32359ms total)
T2790 18750:985 JLINK_IsHalted() -- CPU_ReadMem(2 bytes @ 0x20000000)  returns TRUE (0004ms, 32363ms total)
T2790 18750:989 JLINK_ReadReg(R15 (PC))  returns 0x20000000 (0000ms, 32359ms total)
T2790 18750:989 JLINK_ClrBPEx(BPHandle = 0x00000007)  returns 0x00 (0000ms, 32359ms total)
T2790 18750:989 JLINK_ReadReg(R0)  returns 0x00000000 (0000ms, 32359ms total)
T2790 18750:989 JLINK_WriteMem(0x2000094C, 0x02B4 Bytes, ...) - Data: 09 E0 42 B9 14 4B D4 33 1C 68 01 23 8B 40 9C 43 ... -- CPU_WriteMem(692 bytes @ 0x2000094C)  returns 0x2B4 (0005ms, 32364ms total)
T2790 18750:994 JLINK_WriteMem(0x20000C00, 0x014C Bytes, ...) - Data: 00 F0 78 FE 00 28 05 DD 20 48 00 68 1E 49 09 68 ... -- CPU_WriteMem(332 bytes @ 0x20000C00)  returns 0x14C (0003ms, 32367ms total)
T2790 18750:997 JLINK_WriteReg(R0, 0x00000C00)  returns 0x00 (0000ms, 32367ms total)
T2790 18750:997 JLINK_WriteReg(R1, 0x00000400)  returns 0x00 (0000ms, 32367ms total)
T2790 18750:997 JLINK_WriteReg(R2, 0x2000094C)  returns 0x00 (0000ms, 32367ms total)
T2790 18750:997 JLINK_WriteReg(R3, 0x00000000)  returns 0x00 (0000ms, 32367ms total)
T2790 18750:997 JLINK_WriteReg(R4, 0x00000000)  returns 0x00 (0000ms, 32367ms total)
T2790 18750:997 JLINK_WriteReg(R5, 0x00000000)  returns 0x00 (0000ms, 32367ms total)
T2790 18750:997 JLINK_WriteReg(R6, 0x00000000)  returns 0x00 (0000ms, 32367ms total)
T2790 18750:997 JLINK_WriteReg(R7, 0x00000000)  returns 0x00 (0000ms, 32367ms total)
T2790 18750:997 JLINK_WriteReg(R8, 0x00000000)  returns 0x00 (0000ms, 32367ms total)
T2790 18750:997 JLINK_WriteReg(R9, 0x20000910)  returns 0x00 (0000ms, 32367ms total)
T2790 18750:997 JLINK_WriteReg(R10, 0x00000000)  returns 0x00 (0000ms, 32367ms total)
T2790 18750:997 JLINK_WriteReg(R11, 0x00000000)  returns 0x00 (0000ms, 32367ms total)
T2790 18750:997 JLINK_WriteReg(R12, 0x00000000)  returns 0x00 (0000ms, 32367ms total)
T2790 18750:997 JLINK_WriteReg(R13 (SP), 0x20001000)  returns 0x00 (0000ms, 32367ms total)
T2790 18750:997 JLINK_WriteReg(R14, 0x20000001)  returns 0x00 (0000ms, 32367ms total)
T2790 18750:997 JLINK_WriteReg(R15 (PC), 0x200000F6)  returns 0x00 (0000ms, 32367ms total)
T2790 18750:997 JLINK_WriteReg(XPSR, 0x01000000)  returns 0x00 (0000ms, 32367ms total)
T2790 18750:998 JLINK_WriteReg(MSP, 0x20001000)  returns 0x00 (0000ms, 32368ms total)
T2790 18750:998 JLINK_WriteReg(PSP, 0x20001000)  returns 0x00 (0000ms, 32368ms total)
T2790 18750:998 JLINK_WriteReg(CFBP, 0x00000000)  returns 0x00 (0000ms, 32368ms total)
T2790 18750:998 JLINK_SetBPEx(Addr = 0x20000000, Type = 0xFFFFFFF2)  returns 0x00000008 (0000ms, 32368ms total)
T2790 18750:998 JLINK_Go() -- CPU_ReadMem(4 bytes @ 0xE0001000) (0003ms, 32371ms total)
T2790 18751:001 JLINK_IsHalted()  returns FALSE (0001ms, 32372ms total)
T2790 18751:005 JLINK_IsHalted()  returns FALSE (0000ms, 32371ms total)
T2790 18751:007 JLINK_IsHalted()  returns FALSE (0000ms, 32371ms total)
T2790 18751:009 JLINK_IsHalted()  returns FALSE (0000ms, 32371ms total)
T2790 18751:011 JLINK_IsHalted() -- CPU_ReadMem(2 bytes @ 0x20000000)  returns TRUE (0004ms, 32375ms total)
T2790 18751:015 JLINK_ReadReg(R15 (PC))  returns 0x20000000 (0000ms, 32371ms total)
T2790 18751:015 JLINK_ClrBPEx(BPHandle = 0x00000008)  returns 0x00 (0000ms, 32371ms total)
T2790 18751:015 JLINK_ReadReg(R0)  returns 0x00000000 (0000ms, 32371ms total)
T2790 18751:015 JLINK_WriteMem(0x2000094C, 0x02B4 Bytes, ...) - Data: C8 61 23 48 00 68 40 1C 21 49 08 60 05 E0 1E 48 ... -- CPU_WriteMem(692 bytes @ 0x2000094C)  returns 0x2B4 (0005ms, 32376ms total)
T2790 18751:020 JLINK_WriteMem(0x20000C00, 0x014C Bytes, ...) - Data: 0F FA 80 FB BB F1 00 0F 05 DD 00 20 00 90 22 48 ... -- CPU_WriteMem(332 bytes @ 0x20000C00)  returns 0x14C (0003ms, 32379ms total)
T2790 18751:023 JLINK_WriteReg(R0, 0x00001000)  returns 0x00 (0000ms, 32379ms total)
T2790 18751:023 JLINK_WriteReg(R1, 0x00000400)  returns 0x00 (0000ms, 32379ms total)
T2790 18751:023 JLINK_WriteReg(R2, 0x2000094C)  returns 0x00 (0000ms, 32379ms total)
T2790 18751:023 JLINK_WriteReg(R3, 0x00000000)  returns 0x00 (0000ms, 32379ms total)
T2790 18751:023 JLINK_WriteReg(R4, 0x00000000)  returns 0x00 (0000ms, 32379ms total)
T2790 18751:023 JLINK_WriteReg(R5, 0x00000000)  returns 0x00 (0000ms, 32379ms total)
T2790 18751:023 JLINK_WriteReg(R6, 0x00000000)  returns 0x00 (0000ms, 32379ms total)
T2790 18751:023 JLINK_WriteReg(R7, 0x00000000)  returns 0x00 (0000ms, 32379ms total)
T2790 18751:023 JLINK_WriteReg(R8, 0x00000000)  returns 0x00 (0000ms, 32379ms total)
T2790 18751:023 JLINK_WriteReg(R9, 0x20000910)  returns 0x00 (0000ms, 32379ms total)
T2790 18751:023 JLINK_WriteReg(R10, 0x00000000)  returns 0x00 (0000ms, 32379ms total)
T2790 18751:023 JLINK_WriteReg(R11, 0x00000000)  returns 0x00 (0000ms, 32379ms total)
T2790 18751:023 JLINK_WriteReg(R12, 0x00000000)  returns 0x00 (0000ms, 32379ms total)
T2790 18751:023 JLINK_WriteReg(R13 (SP), 0x20001000)  returns 0x00 (0000ms, 32379ms total)
T2790 18751:023 JLINK_WriteReg(R14, 0x20000001)  returns 0x00 (0000ms, 32379ms total)
T2790 18751:023 JLINK_WriteReg(R15 (PC), 0x200000F6)  returns 0x00 (0000ms, 32379ms total)
T2790 18751:023 JLINK_WriteReg(XPSR, 0x01000000)  returns 0x00 (0000ms, 32379ms total)
T2790 18751:023 JLINK_WriteReg(MSP, 0x20001000)  returns 0x00 (0000ms, 32379ms total)
T2790 18751:023 JLINK_WriteReg(PSP, 0x20001000)  returns 0x00 (0000ms, 32379ms total)
T2790 18751:023 JLINK_WriteReg(CFBP, 0x00000000)  returns 0x00 (0000ms, 32379ms total)
T2790 18751:023 JLINK_SetBPEx(Addr = 0x20000000, Type = 0xFFFFFFF2)  returns 0x00000009 (0000ms, 32379ms total)
T2790 18751:023 JLINK_Go() -- CPU_ReadMem(4 bytes @ 0xE0001000) (0004ms, 32383ms total)
T2790 18751:027 JLINK_IsHalted()  returns FALSE (0001ms, 32384ms total)
T2790 18751:033 JLINK_IsHalted()  returns FALSE (0000ms, 32383ms total)
T2790 18751:035 JLINK_IsHalted()  returns FALSE (0000ms, 32383ms total)
T2790 18751:037 JLINK_IsHalted() -- CPU_ReadMem(2 bytes @ 0x20000000)  returns TRUE (0004ms, 32387ms total)
T2790 18751:041 JLINK_ReadReg(R15 (PC))  returns 0x20000000 (0000ms, 32383ms total)
T2790 18751:041 JLINK_ClrBPEx(BPHandle = 0x00000009)  returns 0x00 (0000ms, 32383ms total)
T2790 18751:041 JLINK_ReadReg(R0)  returns 0x00000000 (0000ms, 32383ms total)
T2790 18751:041 JLINK_WriteMem(0x2000094C, 0x02B4 Bytes, ...) - Data: 00 20 C8 61 08 62 09 20 48 62 00 20 08 66 60 1E ... -- CPU_WriteMem(692 bytes @ 0x2000094C)  returns 0x2B4 (0006ms, 32389ms total)
T2790 18751:047 JLINK_WriteMem(0x20000C00, 0x014C Bytes, ...) - Data: 54 08 8D F8 14 40 08 22 29 46 03 A8 01 F0 B8 FA ... -- CPU_WriteMem(332 bytes @ 0x20000C00)  returns 0x14C (0002ms, 32391ms total)
T2790 18751:049 JLINK_WriteReg(R0, 0x00001400)  returns 0x00 (0000ms, 32391ms total)
T2790 18751:049 JLINK_WriteReg(R1, 0x00000400)  returns 0x00 (0000ms, 32391ms total)
T2790 18751:049 JLINK_WriteReg(R2, 0x2000094C)  returns 0x00 (0000ms, 32391ms total)
T2790 18751:049 JLINK_WriteReg(R3, 0x00000000)  returns 0x00 (0000ms, 32391ms total)
T2790 18751:049 JLINK_WriteReg(R4, 0x00000000)  returns 0x00 (0000ms, 32391ms total)
T2790 18751:049 JLINK_WriteReg(R5, 0x00000000)  returns 0x00 (0000ms, 32391ms total)
T2790 18751:049 JLINK_WriteReg(R6, 0x00000000)  returns 0x00 (0000ms, 32391ms total)
T2790 18751:049 JLINK_WriteReg(R7, 0x00000000)  returns 0x00 (0000ms, 32391ms total)
T2790 18751:049 JLINK_WriteReg(R8, 0x00000000)  returns 0x00 (0000ms, 32391ms total)
T2790 18751:049 JLINK_WriteReg(R9, 0x20000910)  returns 0x00 (0000ms, 32391ms total)
T2790 18751:049 JLINK_WriteReg(R10, 0x00000000)  returns 0x00 (0000ms, 32391ms total)
T2790 18751:049 JLINK_WriteReg(R11, 0x00000000)  returns 0x00 (0000ms, 32391ms total)
T2790 18751:049 JLINK_WriteReg(R12, 0x00000000)  returns 0x00 (0000ms, 32391ms total)
T2790 18751:050 JLINK_WriteReg(R13 (SP), 0x20001000)  returns 0x00 (0000ms, 32392ms total)
T2790 18751:050 JLINK_WriteReg(R14, 0x20000001)  returns 0x00 (0000ms, 32392ms total)
T2790 18751:050 JLINK_WriteReg(R15 (PC), 0x200000F6)  returns 0x00 (0000ms, 32392ms total)
T2790 18751:050 JLINK_WriteReg(XPSR, 0x01000000)  returns 0x00 (0000ms, 32392ms total)
T2790 18751:050 JLINK_WriteReg(MSP, 0x20001000)  returns 0x00 (0000ms, 32392ms total)
T2790 18751:050 JLINK_WriteReg(PSP, 0x20001000)  returns 0x00 (0000ms, 32392ms total)
T2790 18751:050 JLINK_WriteReg(CFBP, 0x00000000)  returns 0x00 (0000ms, 32392ms total)
T2790 18751:050 JLINK_SetBPEx(Addr = 0x20000000, Type = 0xFFFFFFF2)  returns 0x0000000A (0000ms, 32392ms total)
T2790 18751:050 JLINK_Go() -- CPU_ReadMem(4 bytes @ 0xE0001000) (0003ms, 32395ms total)
T2790 18751:053 JLINK_IsHalted()  returns FALSE (0001ms, 32396ms total)
T2790 18751:057 JLINK_IsHalted()  returns FALSE (0000ms, 32395ms total)
T2790 18751:059 JLINK_IsHalted()  returns FALSE (0000ms, 32395ms total)
T2790 18751:063 JLINK_IsHalted() -- CPU_ReadMem(2 bytes @ 0x20000000)  returns TRUE (0004ms, 32399ms total)
T2790 18751:067 JLINK_ReadReg(R15 (PC))  returns 0x20000000 (0000ms, 32395ms total)
T2790 18751:067 JLINK_ClrBPEx(BPHandle = 0x0000000A)  returns 0x00 (0000ms, 32395ms total)
T2790 18751:067 JLINK_ReadReg(R0)  returns 0x00000000 (0000ms, 32395ms total)
T2790 18751:068 JLINK_WriteMem(0x2000094C, 0x02B4 Bytes, ...) - Data: 00 BF 69 46 01 20 02 F0 E9 F9 04 46 04 B1 25 E0 ... -- CPU_WriteMem(692 bytes @ 0x2000094C)  returns 0x2B4 (0005ms, 32400ms total)
T2790 18751:073 JLINK_WriteMem(0x20000C00, 0x014C Bytes, ...) - Data: 10 F8 21 00 20 70 58 68 40 1C D9 68 90 FB F1 F2 ... -- CPU_WriteMem(332 bytes @ 0x20000C00)  returns 0x14C (0003ms, 32403ms total)
T2790 18751:076 JLINK_WriteReg(R0, 0x00001800)  returns 0x00 (0000ms, 32403ms total)
T2790 18751:076 JLINK_WriteReg(R1, 0x00000400)  returns 0x00 (0000ms, 32403ms total)
T2790 18751:076 JLINK_WriteReg(R2, 0x2000094C)  returns 0x00 (0000ms, 32403ms total)
T2790 18751:076 JLINK_WriteReg(R3, 0x00000000)  returns 0x00 (0000ms, 32403ms total)
T2790 18751:076 JLINK_WriteReg(R4, 0x00000000)  returns 0x00 (0000ms, 32403ms total)
T2790 18751:076 JLINK_WriteReg(R5, 0x00000000)  returns 0x00 (0000ms, 32403ms total)
T2790 18751:076 JLINK_WriteReg(R6, 0x00000000)  returns 0x00 (0000ms, 32403ms total)
T2790 18751:076 JLINK_WriteReg(R7, 0x00000000)  returns 0x00 (0000ms, 32403ms total)
T2790 18751:076 JLINK_WriteReg(R8, 0x00000000)  returns 0x00 (0000ms, 32403ms total)
T2790 18751:076 JLINK_WriteReg(R9, 0x20000910)  returns 0x00 (0000ms, 32403ms total)
T2790 18751:076 JLINK_WriteReg(R10, 0x00000000)  returns 0x00 (0000ms, 32403ms total)
T2790 18751:076 JLINK_WriteReg(R11, 0x00000000)  returns 0x00 (0000ms, 32403ms total)
T2790 18751:076 JLINK_WriteReg(R12, 0x00000000)  returns 0x00 (0000ms, 32403ms total)
T2790 18751:076 JLINK_WriteReg(R13 (SP), 0x20001000)  returns 0x00 (0000ms, 32403ms total)
T2790 18751:076 JLINK_WriteReg(R14, 0x20000001)  returns 0x00 (0000ms, 32403ms total)
T2790 18751:076 JLINK_WriteReg(R15 (PC), 0x200000F6)  returns 0x00 (0000ms, 32403ms total)
T2790 18751:076 JLINK_WriteReg(XPSR, 0x01000000)  returns 0x00 (0000ms, 32403ms total)
T2790 18751:076 JLINK_WriteReg(MSP, 0x20001000)  returns 0x00 (0000ms, 32403ms total)
T2790 18751:076 JLINK_WriteReg(PSP, 0x20001000)  returns 0x00 (0000ms, 32403ms total)
T2790 18751:076 JLINK_WriteReg(CFBP, 0x00000000)  returns 0x00 (0000ms, 32403ms total)
T2790 18751:076 JLINK_SetBPEx(Addr = 0x20000000, Type = 0xFFFFFFF2)  returns 0x0000000B (0000ms, 32403ms total)
T2790 18751:076 JLINK_Go() -- CPU_ReadMem(4 bytes @ 0xE0001000) (0004ms, 32407ms total)
T2790 18751:080 JLINK_IsHalted()  returns FALSE (0000ms, 32407ms total)
T2790 18751:084 JLINK_IsHalted()  returns FALSE (0000ms, 32407ms total)
T2790 18751:086 JLINK_IsHalted()  returns FALSE (0000ms, 32407ms total)
T2790 18751:088 JLINK_IsHalted()  returns FALSE (0000ms, 32407ms total)
T2790 18751:090 JLINK_IsHalted() -- CPU_ReadMem(2 bytes @ 0x20000000)  returns TRUE (0004ms, 32411ms total)
T2790 18751:094 JLINK_ReadReg(R15 (PC))  returns 0x20000000 (0000ms, 32407ms total)
T2790 18751:094 JLINK_ClrBPEx(BPHandle = 0x0000000B)  returns 0x00 (0000ms, 32407ms total)
T2790 18751:094 JLINK_ReadReg(R0)  returns 0x00000000 (0000ms, 32407ms total)
T2790 18751:094 JLINK_WriteMem(0x2000094C, 0x02B4 Bytes, ...) - Data: 03 48 40 78 40 1E 02 49 48 70 00 20 70 47 00 00 ... -- CPU_WriteMem(692 bytes @ 0x2000094C)  returns 0x2B4 (0005ms, 32412ms total)
T2790 18751:099 JLINK_WriteMem(0x20000C00, 0x014C Bytes, ...) - Data: BD F8 0A 20 08 3A 91 B2 9D F8 09 00 7C 4A 53 69 ... -- CPU_WriteMem(332 bytes @ 0x20000C00)  returns 0x14C (0003ms, 32415ms total)
T2790 18751:102 JLINK_WriteReg(R0, 0x00001C00)  returns 0x00 (0000ms, 32415ms total)
T2790 18751:102 JLINK_WriteReg(R1, 0x00000400)  returns 0x00 (0000ms, 32415ms total)
T2790 18751:102 JLINK_WriteReg(R2, 0x2000094C)  returns 0x00 (0000ms, 32415ms total)
T2790 18751:102 JLINK_WriteReg(R3, 0x00000000)  returns 0x00 (0000ms, 32415ms total)
T2790 18751:102 JLINK_WriteReg(R4, 0x00000000)  returns 0x00 (0000ms, 32415ms total)
T2790 18751:102 JLINK_WriteReg(R5, 0x00000000)  returns 0x00 (0000ms, 32415ms total)
T2790 18751:102 JLINK_WriteReg(R6, 0x00000000)  returns 0x00 (0000ms, 32415ms total)
T2790 18751:102 JLINK_WriteReg(R7, 0x00000000)  returns 0x00 (0000ms, 32415ms total)
T2790 18751:102 JLINK_WriteReg(R8, 0x00000000)  returns 0x00 (0000ms, 32415ms total)
T2790 18751:102 JLINK_WriteReg(R9, 0x20000910)  returns 0x00 (0000ms, 32415ms total)
T2790 18751:102 JLINK_WriteReg(R10, 0x00000000)  returns 0x00 (0000ms, 32415ms total)
T2790 18751:102 JLINK_WriteReg(R11, 0x00000000)  returns 0x00 (0000ms, 32415ms total)
T2790 18751:102 JLINK_WriteReg(R12, 0x00000000)  returns 0x00 (0000ms, 32415ms total)
T2790 18751:102 JLINK_WriteReg(R13 (SP), 0x20001000)  returns 0x00 (0000ms, 32415ms total)
T2790 18751:102 JLINK_WriteReg(R14, 0x20000001)  returns 0x00 (0000ms, 32415ms total)
T2790 18751:102 JLINK_WriteReg(R15 (PC), 0x200000F6)  returns 0x00 (0000ms, 32415ms total)
T2790 18751:103 JLINK_WriteReg(XPSR, 0x01000000)  returns 0x00 (0000ms, 32415ms total)
T2790 18751:103 JLINK_WriteReg(MSP, 0x20001000)  returns 0x00 (0000ms, 32415ms total)
T2790 18751:103 JLINK_WriteReg(PSP, 0x20001000)  returns 0x00 (0000ms, 32415ms total)
T2790 18751:103 JLINK_WriteReg(CFBP, 0x00000000)  returns 0x00 (0000ms, 32415ms total)
T2790 18751:103 JLINK_SetBPEx(Addr = 0x20000000, Type = 0xFFFFFFF2)  returns 0x0000000C (0000ms, 32415ms total)
T2790 18751:103 JLINK_Go() -- CPU_ReadMem(4 bytes @ 0xE0001000) (0003ms, 32418ms total)
T2790 18751:107 JLINK_IsHalted()  returns FALSE (0000ms, 32419ms total)
T2790 18751:112 JLINK_IsHalted()  returns FALSE (0000ms, 32419ms total)
T2790 18751:114 JLINK_IsHalted()  returns FALSE (0000ms, 32419ms total)
T2790 18751:116 JLINK_IsHalted() -- CPU_ReadMem(2 bytes @ 0x20000000)  returns TRUE (0004ms, 32423ms total)
T2790 18751:120 JLINK_ReadReg(R15 (PC))  returns 0x20000000 (0000ms, 32419ms total)
T2790 18751:120 JLINK_ClrBPEx(BPHandle = 0x0000000C)  returns 0x00 (0000ms, 32419ms total)
T2790 18751:120 JLINK_ReadReg(R0)  returns 0x00000000 (0000ms, 32419ms total)
T2790 18751:120 JLINK_WriteMem(0x2000094C, 0x02B4 Bytes, ...) - Data: 02 F0 D2 F9 3C A0 02 F0 CF F9 00 BF 6F F0 05 04 ... -- CPU_WriteMem(692 bytes @ 0x2000094C)  returns 0x2B4 (0006ms, 32425ms total)
T2790 18751:126 JLINK_WriteMem(0x20000C00, 0x014C Bytes, ...) - Data: 70 74 20 72 65 67 0A 00 2D E9 F0 41 05 46 0F 46 ... -- CPU_WriteMem(332 bytes @ 0x20000C00)  returns 0x14C (0003ms, 32428ms total)
T2790 18751:129 JLINK_WriteReg(R0, 0x00002000)  returns 0x00 (0000ms, 32428ms total)
T2790 18751:129 JLINK_WriteReg(R1, 0x00000400)  returns 0x00 (0000ms, 32428ms total)
T2790 18751:129 JLINK_WriteReg(R2, 0x2000094C)  returns 0x00 (0000ms, 32428ms total)
T2790 18751:129 JLINK_WriteReg(R3, 0x00000000)  returns 0x00 (0000ms, 32428ms total)
T2790 18751:129 JLINK_WriteReg(R4, 0x00000000)  returns 0x00 (0000ms, 32428ms total)
T2790 18751:129 JLINK_WriteReg(R5, 0x00000000)  returns 0x00 (0000ms, 32428ms total)
T2790 18751:129 JLINK_WriteReg(R6, 0x00000000)  returns 0x00 (0000ms, 32428ms total)
T2790 18751:129 JLINK_WriteReg(R7, 0x00000000)  returns 0x00 (0000ms, 32428ms total)
T2790 18751:129 JLINK_WriteReg(R8, 0x00000000)  returns 0x00 (0000ms, 32428ms total)
T2790 18751:129 JLINK_WriteReg(R9, 0x20000910)  returns 0x00 (0000ms, 32428ms total)
T2790 18751:129 JLINK_WriteReg(R10, 0x00000000)  returns 0x00 (0000ms, 32428ms total)
T2790 18751:129 JLINK_WriteReg(R11, 0x00000000)  returns 0x00 (0000ms, 32428ms total)
T2790 18751:129 JLINK_WriteReg(R12, 0x00000000)  returns 0x00 (0000ms, 32428ms total)
T2790 18751:129 JLINK_WriteReg(R13 (SP), 0x20001000)  returns 0x00 (0000ms, 32428ms total)
T2790 18751:129 JLINK_WriteReg(R14, 0x20000001)  returns 0x00 (0000ms, 32428ms total)
T2790 18751:129 JLINK_WriteReg(R15 (PC), 0x200000F6)  returns 0x00 (0000ms, 32428ms total)
T2790 18751:129 JLINK_WriteReg(XPSR, 0x01000000)  returns 0x00 (0000ms, 32428ms total)
T2790 18751:129 JLINK_WriteReg(MSP, 0x20001000)  returns 0x00 (0000ms, 32428ms total)
T2790 18751:129 JLINK_WriteReg(PSP, 0x20001000)  returns 0x00 (0000ms, 32428ms total)
T2790 18751:129 JLINK_WriteReg(CFBP, 0x00000000)  returns 0x00 (0000ms, 32428ms total)
T2790 18751:129 JLINK_SetBPEx(Addr = 0x20000000, Type = 0xFFFFFFF2)  returns 0x0000000D (0000ms, 32428ms total)
T2790 18751:129 JLINK_Go() -- CPU_ReadMem(4 bytes @ 0xE0001000) (0004ms, 32432ms total)
T2790 18751:133 JLINK_IsHalted()  returns FALSE (0000ms, 32432ms total)
T2790 18751:137 JLINK_IsHalted()  returns FALSE (0000ms, 32432ms total)
T2790 18751:143 JLINK_IsHalted() -- CPU_ReadMem(2 bytes @ 0x20000000)  returns TRUE (0005ms, 32437ms total)
T2790 18751:148 JLINK_ReadReg(R15 (PC))  returns 0x20000000 (0000ms, 32432ms total)
T2790 18751:148 JLINK_ClrBPEx(BPHandle = 0x0000000D)  returns 0x00 (0000ms, 32432ms total)
T2790 18751:148 JLINK_ReadReg(R0)  returns 0x00000000 (0000ms, 32432ms total)
T2790 18751:148 JLINK_WriteMem(0x2000094C, 0x02B4 Bytes, ...) - Data: 23 E0 13 48 04 61 20 E0 11 48 84 61 1D E0 10 48 ... -- CPU_WriteMem(692 bytes @ 0x2000094C)  returns 0x2B4 (0005ms, 32437ms total)
T2790 18751:153 JLINK_WriteMem(0x20000C00, 0x014C Bytes, ...) - Data: 46 4F 29 00 53 6C 6F 77 69 6E 67 20 64 6F 77 6E ... -- CPU_WriteMem(332 bytes @ 0x20000C00)  returns 0x14C (0002ms, 32439ms total)
T2790 18751:155 JLINK_WriteReg(R0, 0x00002400)  returns 0x00 (0000ms, 32439ms total)
T2790 18751:155 JLINK_WriteReg(R1, 0x00000400)  returns 0x00 (0000ms, 32439ms total)
T2790 18751:155 JLINK_WriteReg(R2, 0x2000094C)  returns 0x00 (0000ms, 32439ms total)
T2790 18751:155 JLINK_WriteReg(R3, 0x00000000)  returns 0x00 (0000ms, 32439ms total)
T2790 18751:155 JLINK_WriteReg(R4, 0x00000000)  returns 0x00 (0000ms, 32439ms total)
T2790 18751:155 JLINK_WriteReg(R5, 0x00000000)  returns 0x00 (0000ms, 32439ms total)
T2790 18751:155 JLINK_WriteReg(R6, 0x00000000)  returns 0x00 (0000ms, 32439ms total)
T2790 18751:155 JLINK_WriteReg(R7, 0x00000000)  returns 0x00 (0000ms, 32439ms total)
T2790 18751:155 JLINK_WriteReg(R8, 0x00000000)  returns 0x00 (0000ms, 32439ms total)
T2790 18751:155 JLINK_WriteReg(R9, 0x20000910)  returns 0x00 (0000ms, 32439ms total)
T2790 18751:155 JLINK_WriteReg(R10, 0x00000000)  returns 0x00 (0001ms, 32440ms total)
T2790 18751:156 JLINK_WriteReg(R11, 0x00000000)  returns 0x00 (0000ms, 32440ms total)
T2790 18751:156 JLINK_WriteReg(R12, 0x00000000)  returns 0x00 (0000ms, 32440ms total)
T2790 18751:156 JLINK_WriteReg(R13 (SP), 0x20001000)  returns 0x00 (0000ms, 32440ms total)
T2790 18751:156 JLINK_WriteReg(R14, 0x20000001)  returns 0x00 (0000ms, 32440ms total)
T2790 18751:156 JLINK_WriteReg(R15 (PC), 0x200000F6)  returns 0x00 (0000ms, 32440ms total)
T2790 18751:156 JLINK_WriteReg(XPSR, 0x01000000)  returns 0x00 (0000ms, 32440ms total)
T2790 18751:156 JLINK_WriteReg(MSP, 0x20001000)  returns 0x00 (0000ms, 32440ms total)
T2790 18751:156 JLINK_WriteReg(PSP, 0x20001000)  returns 0x00 (0000ms, 32440ms total)
T2790 18751:156 JLINK_WriteReg(CFBP, 0x00000000)  returns 0x00 (0000ms, 32440ms total)
T2790 18751:156 JLINK_SetBPEx(Addr = 0x20000000, Type = 0xFFFFFFF2)  returns 0x0000000E (0000ms, 32440ms total)
T2790 18751:156 JLINK_Go() -- CPU_ReadMem(4 bytes @ 0xE0001000) (0004ms, 32444ms total)
T2790 18751:160 JLINK_IsHalted()  returns FALSE (0001ms, 32445ms total)
T2790 18751:167 JLINK_IsHalted()  returns FALSE (0000ms, 32444ms total)
